<Qucs Dataset 0.0.15>
<indep x 10>
  +5.00000000000e+00
  +1.00000000000e+01
  +1.50000000000e+01
  +2.00000000000e+01
  +2.50000000000e+01
  +3.00000000000e+01
  +3.50000000000e+01
  +4.00000000000e+01
  +4.50000000000e+01
  +5.00000000000e+01
</indep>
<dep V1.I x>
  -1.34615384615e+00
  -9.72222222222e-01
  -7.60869565217e-01
  -6.25000000000e-01
  -5.30303030303e-01
  -4.60526315789e-01
  -4.06976744186e-01
  -3.64583333333e-01
  -3.30188679245e-01
  -3.01724137931e-01
</dep>
<dep izeja.V x>
  +6.73076923077e+00
  +9.72222222222e+00
  +1.14130434783e+01
  +1.25000000000e+01
  +1.32575757576e+01
  +1.38157894737e+01
  +1.42441860465e+01
  +1.45833333333e+01
  +1.48584905660e+01
  +1.50862068966e+01
</dep>
<dep _net0.V x>
  +1.75000000000e+01
  +1.75000000000e+01
  +1.75000000000e+01
  +1.75000000000e+01
  +1.75000000000e+01
  +1.75000000000e+01
  +1.75000000000e+01
  +1.75000000000e+01
  +1.75000000000e+01
  +1.75000000000e+01
</dep>
